Time [s],Packet ID,MOSI,MISO
1.828613640000000,0,0xAE,0x00
1.828668500000000,0,0x02,0x00
1.828711540000000,0,0x10,0x00
1.828753260000000,0,0x40,0x00
1.828794320000000,0,0x81,0x00
1.828834820000000,0,0xA0,0x00
1.828875260000000,0,0xC0,0x00
1.828915980000000,0,0xA6,0x00
1.828956680000000,0,0xA8,0x00
1.828997340000000,0,0x3F,0x00
1.829037700000000,0,0xD3,0x00
1.829078200000000,0,0x00,0x00
1.829118980000000,0,0xD5,0x00
1.829159340000000,0,0x80,0x00
1.829199880000000,0,0xD9,0x00
1.829243300000000,0,0xF1,0x00
1.829284080000000,0,0xDA,0x00
1.829324880000000,0,0x12,0x00
1.829365680000000,0,0xDB,0x00
1.829406060000000,0,0x40,0x00
1.829446620000000,0,0x20,0x00
1.829487040000000,0,0x02,0x00
1.829527580000000,0,0xA4,0x00
1.829567820000000,0,0xA6,0x00
1.829608380000000,0,0xAF,0x00
1.830251520000000,0,0xB0,0x00
1.830299480000000,0,0x02,0x00
1.830340780000000,0,0x10,0x00
1.830404080000000,0,0xFF,0xFF
1.830410480000000,0,0xDF,0xFF
1.830416880000000,0,0xAF,0xFF
1.830423280000000,0,0x77,0xFF
1.830429680000000,0,0xFB,0xFF
1.830436080000000,0,0xFD,0xFF
1.830442480000000,0,0xFF,0xFF
1.830448880000000,0,0xFF,0xFF
1.830455280000000,0,0xFF,0xFF
1.830461680000000,0,0xFF,0xFF
1.830468080000000,0,0xFF,0xFF
1.830474480000000,0,0xFF,0xFF
1.830480880000000,0,0xFF,0xFF
1.830487280000000,0,0xF7,0xFF
1.830493680000000,0,0x03,0xFF
1.830500080000000,0,0xFF,0xFF
1.830506480000000,0,0xFF,0xFF
1.830512880000000,0,0xFF,0xFF
1.830519280000000,0,0xFF,0xFF
1.830525680000000,0,0xFF,0xFF
1.830532080000000,0,0xFF,0xFF
1.830538480000000,0,0xFF,0xFF
1.830544880000000,0,0xFF,0xFF
1.830551280000000,0,0xFF,0xFF
1.830557680000000,0,0xFF,0xFF
1.830564080000000,0,0xFD,0xFF
1.830570480000000,0,0xFB,0xFF
1.830576880000000,0,0x77,0xFF
1.830583280000000,0,0xAF,0xFF
1.830589680000000,0,0xDF,0xFF
1.830596080000000,0,0x00,0xFF
1.830602480000000,0,0x00,0xFF
1.830608880000000,0,0x00,0xFF
1.830615280000000,0,0x00,0xFF
1.830621680000000,0,0x00,0xFF
1.830628080000000,0,0xE0,0xFF
1.830634480000000,0,0x9C,0xFF
1.830640880000000,0,0xF0,0xFF
1.830647280000000,0,0x80,0xFF
1.830653680000000,0,0x00,0xFF
1.830660080000000,0,0x00,0xFF
1.830666480000000,0,0xC0,0xFF
1.830672880000000,0,0x20,0xFF
1.830679280000000,0,0x24,0xFF
1.830685680000000,0,0xFC,0xFF
1.830692080000000,0,0x00,0xFF
1.830698480000000,0,0xE0,0xFF
1.830704880000000,0,0x20,0xFF
1.830711280000000,0,0xE0,0xFF
1.830717680000000,0,0x20,0xFF
1.830724080000000,0,0xC0,0xFF
1.830730480000000,0,0x00,0xFF
1.830736880000000,0,0x00,0xFF
1.830743280000000,0,0x20,0xFF
1.830749680000000,0,0xE4,0xFF
1.830756080000000,0,0x00,0xFF
1.830762460000000,0,0x00,0xFF
1.830768860000000,0,0x00,0xFF
1.830775260000000,0,0x20,0xFF
1.830781660000000,0,0xE0,0xFF
1.830788060000000,0,0x20,0xFF
1.830794460000000,0,0x20,0xFF
1.830800860000000,0,0xC0,0xFF
1.830807260000000,0,0x00,0xFF
1.830813660000000,0,0x00,0xFF
1.830820060000000,0,0x00,0xFF
1.830826460000000,0,0x00,0xFF
1.830832860000000,0,0x00,0xFF
1.830839260000000,0,0x00,0xFF
1.830845660000000,0,0x00,0xFF
1.830852060000000,0,0x00,0xFF
1.830858460000000,0,0x00,0xFF
1.830864860000000,0,0x00,0xFF
1.830871260000000,0,0x00,0xFF
1.830877660000000,0,0x00,0xFF
1.830884060000000,0,0x00,0xFF
1.830890460000000,0,0x00,0xFF
1.830896860000000,0,0x00,0xFF
1.830903260000000,0,0x00,0xFF
1.830909660000000,0,0x00,0xFF
1.830916060000000,0,0x00,0xFF
1.830922460000000,0,0x00,0xFF
1.830928860000000,0,0x00,0xFF
1.830935260000000,0,0x00,0xFF
1.830941660000000,0,0x00,0xFF
1.830948060000000,0,0x00,0xFF
1.830954460000000,0,0x00,0xFF
1.830960860000000,0,0x00,0xFF
1.830967260000000,0,0x00,0xFF
1.830973660000000,0,0x00,0xFF
1.830980060000000,0,0x00,0xFF
1.830986460000000,0,0x00,0xFF
1.830992860000000,0,0x00,0xFF
1.830999260000000,0,0x00,0xFF
1.831005660000000,0,0x00,0xFF
1.831012060000000,0,0x00,0xFF
1.831018460000000,0,0x00,0xFF
1.831024860000000,0,0x00,0xFF
1.831031260000000,0,0x00,0xFF
1.831037660000000,0,0x00,0xFF
1.831044060000000,0,0x00,0xFF
1.831050460000000,0,0x00,0xFF
1.831056860000000,0,0x00,0xFF
1.831063260000000,0,0x00,0xFF
1.831069660000000,0,0x00,0xFF
1.831076060000000,0,0x00,0xFF
1.831082460000000,0,0x00,0xFF
1.831088860000000,0,0x00,0xFF
1.831095260000000,0,0x00,0xFF
1.831101660000000,0,0x00,0xFF
1.831108060000000,0,0x00,0xFF
1.831114460000000,0,0x00,0xFF
1.831120860000000,0,0x00,0xFF
1.831127260000000,0,0x00,0xFF
1.831133660000000,0,0xF8,0xFF
1.831140060000000,0,0x08,0xFF
1.831146460000000,0,0x04,0xFF
1.831152860000000,0,0xF4,0xFF
1.831159260000000,0,0xF4,0xFF
1.831165660000000,0,0x04,0xFF
1.831172060000000,0,0xF4,0xFF
1.831178460000000,0,0xF4,0xFF
1.831184860000000,0,0x04,0xFF
1.831191260000000,0,0xF4,0xFF
1.831197660000000,0,0xF4,0xFF
1.831204060000000,0,0x04,0xFF
1.831210460000000,0,0xFC,0xFF
1.831216860000000,0,0x00,0xFF
1.831296560000000,0,0xB1,0x00
1.831340940000000,0,0x02,0x00
1.831381940000000,0,0x10,0x00
1.831432460000000,0,0x0F,0xFF
1.831438860000000,0,0x0F,0xFF
1.831445260000000,0,0x0F,0xFF
1.831451660000000,0,0x0F,0xFF
1.831458060000000,0,0x0E,0xFF
1.831464460000000,0,0x0D,0xFF
1.831470860000000,0,0x0F,0xFF
1.831477260000000,0,0x0F,0xFF
1.831483660000000,0,0x0F,0xFF
1.831490060000000,0,0x0F,0xFF
1.831496460000000,0,0x0F,0xFF
1.831502860000000,0,0x0F,0xFF
1.831509260000000,0,0x0F,0xFF
1.831515660000000,0,0x0D,0xFF
1.831522060000000,0,0x0C,0xFF
1.831528460000000,0,0x0D,0xFF
1.831534860000000,0,0x0F,0xFF
1.831541260000000,0,0x0F,0xFF
1.831547660000000,0,0x0F,0xFF
1.831554060000000,0,0x0F,0xFF
1.831560460000000,0,0x0F,0xFF
1.831566860000000,0,0x0F,0xFF
1.831573260000000,0,0x0F,0xFF
1.831579660000000,0,0x0F,0xFF
1.831586060000000,0,0x0F,0xFF
1.831592460000000,0,0x0D,0xFF
1.831598860000000,0,0x0E,0xFF
1.831605260000000,0,0x0F,0xFF
1.831611660000000,0,0x0F,0xFF
1.831618060000000,0,0x0F,0xFF
1.831624460000000,0,0x00,0xFF
1.831630860000000,0,0x00,0xFF
1.831637260000000,0,0x00,0xFF
1.831643660000000,0,0x00,0xFF
1.831650060000000,0,0x02,0xFF
1.831656460000000,0,0x03,0xFF
1.831662860000000,0,0x00,0xFF
1.831669260000000,0,0x00,0xFF
1.831675660000000,0,0x03,0xFF
1.831682060000000,0,0x02,0xFF
1.831688460000000,0,0x00,0xFF
1.831694860000000,0,0x01,0xFF
1.831701260000000,0,0x02,0xFF
1.831707660000000,0,0x02,0xFF
1.831714040000000,0,0x03,0xFF
1.831720440000000,0,0x02,0xFF
1.831726840000000,0,0x03,0xFF
1.831733240000000,0,0x00,0xFF
1.831739640000000,0,0x03,0xFF
1.831746040000000,0,0x00,0xFF
1.831752440000000,0,0x03,0xFF
1.831758840000000,0,0x00,0xFF
1.831765240000000,0,0x00,0xFF
1.831771640000000,0,0x02,0xFF
1.831778040000000,0,0x03,0xFF
1.831784440000000,0,0x02,0xFF
1.831790840000000,0,0x00,0xFF
1.831797240000000,0,0x00,0xFF
1.831803640000000,0,0x02,0xFF
1.831810040000000,0,0x03,0xFF
1.831816440000000,0,0x02,0xFF
1.831822840000000,0,0x00,0xFF
1.831829240000000,0,0x03,0xFF
1.831835640000000,0,0x02,0xFF
1.831842040000000,0,0x00,0xFF
1.831848440000000,0,0x00,0xFF
1.831854840000000,0,0x00,0xFF
1.831861240000000,0,0x00,0xFF
1.831867640000000,0,0x00,0xFF
1.831874040000000,0,0x00,0xFF
1.831880440000000,0,0x00,0xFF
1.831886840000000,0,0x00,0xFF
1.831893240000000,0,0x00,0xFF
1.831899640000000,0,0x00,0xFF
1.831906040000000,0,0x00,0xFF
1.831912440000000,0,0x00,0xFF
1.831918840000000,0,0x00,0xFF
1.831925240000000,0,0x00,0xFF
1.831931640000000,0,0x00,0xFF
1.831938040000000,0,0x00,0xFF
1.831944440000000,0,0x00,0xFF
1.831950840000000,0,0x00,0xFF
1.831957240000000,0,0x00,0xFF
1.831963640000000,0,0x00,0xFF
1.831970040000000,0,0x00,0xFF
1.831976440000000,0,0x00,0xFF
1.831982840000000,0,0x00,0xFF
1.831989240000000,0,0x00,0xFF
1.831995640000000,0,0x00,0xFF
1.832002040000000,0,0x00,0xFF
1.832008440000000,0,0x00,0xFF
1.832014840000000,0,0x00,0xFF
1.832021240000000,0,0x00,0xFF
1.832027640000000,0,0x00,0xFF
1.832034040000000,0,0x00,0xFF
1.832040440000000,0,0x00,0xFF
1.832046840000000,0,0x00,0xFF
1.832053240000000,0,0x00,0xFF
1.832059640000000,0,0x00,0xFF
1.832066040000000,0,0x00,0xFF
1.832072440000000,0,0x00,0xFF
1.832078840000000,0,0x00,0xFF
1.832085240000000,0,0x00,0xFF
1.832091640000000,0,0x00,0xFF
1.832098040000000,0,0x00,0xFF
1.832104440000000,0,0x00,0xFF
1.832110840000000,0,0x00,0xFF
1.832117240000000,0,0x00,0xFF
1.832123640000000,0,0x00,0xFF
1.832130040000000,0,0x00,0xFF
1.832136440000000,0,0x00,0xFF
1.832142840000000,0,0x00,0xFF
1.832149240000000,0,0x00,0xFF
1.832155640000000,0,0x00,0xFF
1.832162040000000,0,0x01,0xFF
1.832168440000000,0,0x01,0xFF
1.832174840000000,0,0x02,0xFF
1.832181240000000,0,0x02,0xFF
1.832187640000000,0,0x02,0xFF
1.832194040000000,0,0x02,0xFF
1.832200440000000,0,0x02,0xFF
1.832206840000000,0,0x02,0xFF
1.832213240000000,0,0x02,0xFF
1.832219640000000,0,0x02,0xFF
1.832226040000000,0,0x02,0xFF
1.832232440000000,0,0x02,0xFF
1.832238840000000,0,0x03,0xFF
1.832245240000000,0,0x00,0xFF
1.832316760000000,0,0xB2,0x00
1.832360800000000,0,0x02,0x00
1.832401820000000,0,0x10,0x00
1.832452560000000,0,0xFB,0xFF
1.832458960000000,0,0x03,0xFF
1.832465360000000,0,0xFF,0xFF
1.832471760000000,0,0xFF,0xFF
1.832478160000000,0,0x03,0xFF
1.832484560000000,0,0xFB,0xFF
1.832490960000000,0,0xFF,0xFF
1.832497360000000,0,0x9F,0xFF
1.832503760000000,0,0x5F,0xFF
1.832510160000000,0,0x5F,0xFF
1.832516560000000,0,0xDF,0xFF
1.832522960000000,0,0xFF,0xFF
1.832529360000000,0,0xFF,0xFF
1.832535760000000,0,0x3F,0xFF
1.832542160000000,0,0x5F,0xFF
1.832548560000000,0,0x5F,0xFF
1.832554960000000,0,0x3F,0xFF
1.832561360000000,0,0xFF,0xFF
1.832567760000000,0,0xDF,0xFF
1.832574160000000,0,0x1F,0xFF
1.832580560000000,0,0xBF,0xFF
1.832586960000000,0,0xDF,0xFF
1.832593360000000,0,0xDF,0xFF
1.832599760000000,0,0xFF,0xFF
1.832606160000000,0,0xFF,0xFF
1.832612560000000,0,0xFF,0xFF
1.832618960000000,0,0xEF,0xFF
1.832625360000000,0,0xFF,0xFF
1.832631760000000,0,0xFF,0xFF
1.832638160000000,0,0xFF,0xFF
1.832644560000000,0,0x00,0xFF
1.832650960000000,0,0x00,0xFF
1.832657360000000,0,0x04,0xFF
1.832663760000000,0,0xFC,0xFF
1.832670160000000,0,0x24,0xFF
1.832676560000000,0,0x24,0xFF
1.832682960000000,0,0xD8,0xFF
1.832689360000000,0,0x00,0xFF
1.832695760000000,0,0x04,0xFF
1.832702160000000,0,0xFC,0xFF
1.832708560000000,0,0x24,0xFF
1.832714960000000,0,0x74,0xFF
1.832721360000000,0,0x0C,0xFF
1.832727760000000,0,0x00,0xFF
1.832734160000000,0,0x18,0xFF
1.832740560000000,0,0x24,0xFF
1.832746960000000,0,0x24,0xFF
1.832753360000000,0,0x44,0xFF
1.832759760000000,0,0x8C,0xFF
1.832766160000000,0,0x00,0xFF
1.832772560000000,0,0x00,0xFF
1.832778960000000,0,0xE0,0xFF
1.832785360000000,0,0x9C,0xFF
1.832791760000000,0,0xF0,0xFF
1.832798160000000,0,0x80,0xFF
1.832804560000000,0,0x00,0xFF
1.832810960000000,0,0x00,0xFF
1.832817360000000,0,0xC0,0xFF
1.832823760000000,0,0x20,0xFF
1.832830160000000,0,0x24,0xFF
1.832836560000000,0,0xFC,0xFF
1.832842960000000,0,0x00,0xFF
1.832849360000000,0,0xE0,0xFF
1.832855760000000,0,0x20,0xFF
1.832862160000000,0,0xE0,0xFF
1.832868560000000,0,0x20,0xFF
1.832874960000000,0,0xC0,0xFF
1.832881360000000,0,0x00,0xFF
1.832887760000000,0,0x00,0xFF
1.832894160000000,0,0x20,0xFF
1.832900560000000,0,0xE4,0xFF
1.832906960000000,0,0x00,0xFF
1.832913360000000,0,0x00,0xFF
1.832919760000000,0,0x00,0xFF
1.832926160000000,0,0x20,0xFF
1.832932560000000,0,0xE0,0xFF
1.832938960000000,0,0x20,0xFF
1.832945360000000,0,0x20,0xFF
1.832951760000000,0,0xC0,0xFF
1.832958160000000,0,0x00,0xFF
1.832964560000000,0,0x00,0xFF
1.832970960000000,0,0x00,0xFF
1.832977360000000,0,0x00,0xFF
1.832983760000000,0,0x00,0xFF
1.832990160000000,0,0x00,0xFF
1.832996560000000,0,0x00,0xFF
1.833002960000000,0,0x00,0xFF
1.833009360000000,0,0x00,0xFF
1.833015760000000,0,0x00,0xFF
1.833022160000000,0,0x00,0xFF
1.833028560000000,0,0x00,0xFF
1.833034960000000,0,0x00,0xFF
1.833041360000000,0,0x00,0xFF
1.833047760000000,0,0x00,0xFF
1.833054160000000,0,0x00,0xFF
1.833060560000000,0,0x00,0xFF
1.833066960000000,0,0x00,0xFF
1.833073360000000,0,0x00,0xFF
1.833079760000000,0,0x00,0xFF
1.833086160000000,0,0x00,0xFF
1.833092560000000,0,0x00,0xFF
1.833098940000000,0,0x00,0xFF
1.833105340000000,0,0x00,0xFF
1.833111740000000,0,0x00,0xFF
1.833118140000000,0,0x00,0xFF
1.833124540000000,0,0x00,0xFF
1.833130940000000,0,0x00,0xFF
1.833137340000000,0,0x00,0xFF
1.833143740000000,0,0x00,0xFF
1.833150140000000,0,0x00,0xFF
1.833156540000000,0,0x00,0xFF
1.833162940000000,0,0x00,0xFF
1.833169340000000,0,0x00,0xFF
1.833175740000000,0,0x00,0xFF
1.833182140000000,0,0x00,0xFF
1.833188540000000,0,0x00,0xFF
1.833194940000000,0,0x00,0xFF
1.833201340000000,0,0x00,0xFF
1.833207740000000,0,0x00,0xFF
1.833214140000000,0,0x00,0xFF
1.833220540000000,0,0x00,0xFF
1.833226940000000,0,0x00,0xFF
1.833233340000000,0,0x00,0xFF
1.833239740000000,0,0x00,0xFF
1.833246140000000,0,0x00,0xFF
1.833252540000000,0,0x00,0xFF
1.833258940000000,0,0x00,0xFF
1.833265340000000,0,0x00,0xFF
1.833336440000000,0,0xB3,0x00
1.833377900000000,0,0x02,0x00
1.833420760000000,0,0x10,0x00
1.833471880000000,0,0xCF,0xFF
1.833478280000000,0,0xCE,0xFF
1.833484680000000,0,0xCD,0xFF
1.833491080000000,0,0xCD,0xFF
1.833497480000000,0,0xCE,0xFF
1.833503880000000,0,0xCF,0xFF
1.833510280000000,0,0xCF,0xFF
1.833516680000000,0,0xCD,0xFF
1.833523080000000,0,0xCD,0xFF
1.833529480000000,0,0xCD,0xFF
1.833535880000000,0,0xCC,0xFF
1.833542280000000,0,0xCF,0xFF
1.833548680000000,0,0xCF,0xFF
1.833555080000000,0,0xCE,0xFF
1.833561480000000,0,0xCD,0xFF
1.833567880000000,0,0xCD,0xFF
1.833574280000000,0,0xCD,0xFF
1.833580680000000,0,0xCF,0xFF
1.833587080000000,0,0xCD,0xFF
1.833593480000000,0,0xCC,0xFF
1.833599880000000,0,0xCD,0xFF
1.833606280000000,0,0xCF,0xFF
1.833612680000000,0,0xCF,0xFF
1.833619080000000,0,0xCF,0xFF
1.833625480000000,0,0xCF,0xFF
1.833631880000000,0,0xCF,0xFF
1.833638280000000,0,0xCD,0xFF
1.833644680000000,0,0xCF,0xFF
1.833651080000000,0,0xCF,0xFF
1.833657480000000,0,0xCF,0xFF
1.833663880000000,0,0x00,0xFF
1.833670280000000,0,0x00,0xFF
1.833676680000000,0,0x02,0xFF
1.833683080000000,0,0x03,0xFF
1.833689480000000,0,0x02,0xFF
1.833695880000000,0,0x02,0xFF
1.833702280000000,0,0x01,0xFF
1.833708680000000,0,0x00,0xFF
1.833715080000000,0,0x02,0xFF
1.833721480000000,0,0x03,0xFF
1.833727880000000,0,0x02,0xFF
1.833734280000000,0,0x02,0xFF
1.833740680000000,0,0x03,0xFF
1.833747080000000,0,0x00,0xFF
1.833753480000000,0,0x03,0xFF
1.833759880000000,0,0x02,0xFF
1.833766280000000,0,0x02,0xFF
1.833772680000000,0,0x02,0xFF
1.833779080000000,0,0x01,0xFF
1.833785480000000,0,0x00,0xFF
1.833791880000000,0,0x02,0xFF
1.833798280000000,0,0x03,0xFF
1.833804680000000,0,0x00,0xFF
1.833811080000000,0,0x00,0xFF
1.833817480000000,0,0x03,0xFF
1.833823880000000,0,0x02,0xFF
1.833830280000000,0,0x00,0xFF
1.833836680000000,0,0x01,0xFF
1.833843080000000,0,0x02,0xFF
1.833849480000000,0,0x02,0xFF
1.833855880000000,0,0x03,0xFF
1.833862280000000,0,0x02,0xFF
1.833868680000000,0,0x03,0xFF
1.833875080000000,0,0x00,0xFF
1.833881480000000,0,0x03,0xFF
1.833887880000000,0,0x00,0xFF
1.833894280000000,0,0x03,0xFF
1.833900680000000,0,0x00,0xFF
1.833907080000000,0,0x00,0xFF
1.833913480000000,0,0x02,0xFF
1.833919880000000,0,0x03,0xFF
1.833926280000000,0,0x02,0xFF
1.833932680000000,0,0x00,0xFF
1.833939080000000,0,0x00,0xFF
1.833945480000000,0,0x02,0xFF
1.833951880000000,0,0x03,0xFF
1.833958280000000,0,0x02,0xFF
1.833964680000000,0,0x00,0xFF
1.833971080000000,0,0x03,0xFF
1.833977480000000,0,0x02,0xFF
1.833983880000000,0,0x00,0xFF
1.833990280000000,0,0x00,0xFF
1.833996680000000,0,0x00,0xFF
1.834003080000000,0,0x00,0xFF
1.834009480000000,0,0x00,0xFF
1.834015880000000,0,0x00,0xFF
1.834022280000000,0,0x00,0xFF
1.834028680000000,0,0x00,0xFF
1.834035080000000,0,0x00,0xFF
1.834041480000000,0,0x00,0xFF
1.834047880000000,0,0x00,0xFF
1.834054280000000,0,0x00,0xFF
1.834060680000000,0,0x00,0xFF
1.834067080000000,0,0x00,0xFF
1.834073480000000,0,0x00,0xFF
1.834079880000000,0,0x00,0xFF
1.834086280000000,0,0x00,0xFF
1.834092680000000,0,0x00,0xFF
1.834099080000000,0,0x00,0xFF
1.834105480000000,0,0x00,0xFF
1.834111880000000,0,0x00,0xFF
1.834118280000000,0,0x00,0xFF
1.834124680000000,0,0x00,0xFF
1.834131080000000,0,0x00,0xFF
1.834137480000000,0,0x00,0xFF
1.834143880000000,0,0x00,0xFF
1.834150280000000,0,0x00,0xFF
1.834156680000000,0,0x00,0xFF
1.834163080000000,0,0x00,0xFF
1.834169480000000,0,0x00,0xFF
1.834175880000000,0,0x00,0xFF
1.834182280000000,0,0x00,0xFF
1.834188680000000,0,0x00,0xFF
1.834195080000000,0,0x00,0xFF
1.834201480000000,0,0x00,0xFF
1.834207880000000,0,0x00,0xFF
1.834214280000000,0,0x00,0xFF
1.834220680000000,0,0x00,0xFF
1.834227080000000,0,0x00,0xFF
1.834233480000000,0,0x00,0xFF
1.834239880000000,0,0x00,0xFF
1.834246280000000,0,0x00,0xFF
1.834252680000000,0,0x00,0xFF
1.834259080000000,0,0x00,0xFF
1.834265480000000,0,0x00,0xFF
1.834271880000000,0,0x00,0xFF
1.834278280000000,0,0x00,0xFF
1.834284680000000,0,0x00,0xFF
1.834355620000000,0,0xB4,0x00
1.834396740000000,0,0x02,0x00
1.834437300000000,0,0x10,0x00
1.834489260000000,0,0x7E,0xFF
1.834495660000000,0,0x00,0xFF
1.834502060000000,0,0x76,0xFF
1.834508460000000,0,0xF6,0xFF
1.834514860000000,0,0xF9,0xFF
1.834521260000000,0,0xFF,0xFF
1.834527660000000,0,0xFF,0xFF
1.834534060000000,0,0xAF,0xFF
1.834540460000000,0,0x57,0xFF
1.834546860000000,0,0x57,0xFF
1.834553260000000,0,0x0F,0xFF
1.834559660000000,0,0x7F,0xFF
1.834566060000000,0,0xFF,0xFF
1.834572460000000,0,0x67,0xFF
1.834578860000000,0,0x57,0xFF
1.834585260000000,0,0x57,0xFF
1.834591660000000,0,0x37,0xFF
1.834598060000000,0,0xFF,0xFF
1.834604460000000,0,0xFF,0xFF
1.834610860000000,0,0x67,0xFF
1.834617260000000,0,0x57,0xFF
1.834623660000000,0,0x57,0xFF
1.834630060000000,0,0x37,0xFF
1.834636460000000,0,0xFF,0xFF
1.834642860000000,0,0xFF,0xFF
1.834649260000000,0,0xFF,0xFF
1.834655660000000,0,0x7B,0xFF
1.834662060000000,0,0xFF,0xFF
1.834668460000000,0,0xFF,0xFF
1.834674860000000,0,0xFF,0xFF
1.834681260000000,0,0x00,0xFF
1.834687660000000,0,0x00,0xFF
1.834694060000000,0,0x01,0xFF
1.834700460000000,0,0xFF,0xFF
1.834706860000000,0,0x88,0xFF
1.834713240000000,0,0x88,0xFF
1.834719640000000,0,0x70,0xFF
1.834726040000000,0,0x00,0xFF
1.834732440000000,0,0x00,0xFF
1.834738840000000,0,0x70,0xFF
1.834745240000000,0,0xA8,0xFF
1.834751640000000,0,0xA8,0xFF
1.834758040000000,0,0xB0,0xFF
1.834764440000000,0,0x00,0xFF
1.834770840000000,0,0x00,0xFF
1.834777240000000,0,0x70,0xFF
1.834783640000000,0,0xA8,0xFF
1.834790040000000,0,0xA8,0xFF
1.834796440000000,0,0xB0,0xFF
1.834802840000000,0,0x00,0xFF
1.834809240000000,0,0x00,0xFF
1.834815640000000,0,0x98,0xFF
1.834822040000000,0,0xA8,0xFF
1.834828440000000,0,0xA8,0xFF
1.834834840000000,0,0xC8,0xFF
1.834841240000000,0,0x00,0xFF
1.834847640000000,0,0x42,0xFF
1.834854040000000,0,0x81,0xFF
1.834860440000000,0,0x89,0xFF
1.834866840000000,0,0x89,0xFF
1.834873240000000,0,0x76,0xFF
1.834879640000000,0,0x00,0xFF
1.834886040000000,0,0xC6,0xFF
1.834892440000000,0,0xA1,0xFF
1.834898840000000,0,0x91,0xFF
1.834905240000000,0,0x89,0xFF
1.834911640000000,0,0x86,0xFF
1.834918040000000,0,0x00,0xFF
1.834924440000000,0,0x7E,0xFF
1.834930840000000,0,0x89,0xFF
1.834937240000000,0,0x89,0xFF
1.834943640000000,0,0x8B,0xFF
1.834950040000000,0,0x70,0xFF
1.834956440000000,0,0x00,0xFF
1.834962840000000,0,0x03,0xFF
1.834969240000000,0,0x01,0xFF
1.834975640000000,0,0xF9,0xFF
1.834982040000000,0,0x07,0xFF
1.834988440000000,0,0x01,0xFF
1.834994840000000,0,0x00,0xFF
1.835001240000000,0,0x76,0xFF
1.835007640000000,0,0x89,0xFF
1.835014040000000,0,0x89,0xFF
1.835020440000000,0,0x89,0xFF
1.835026840000000,0,0x76,0xFF
1.835033240000000,0,0x00,0xFF
1.835039640000000,0,0x00,0xFF
1.835046040000000,0,0x00,0xFF
1.835052440000000,0,0xBF,0xFF
1.835058840000000,0,0x00,0xFF
1.835065240000000,0,0x00,0xFF
1.835071640000000,0,0x00,0xFF
1.835078040000000,0,0x00,0xFF
1.835084440000000,0,0x00,0xFF
1.835090840000000,0,0xBF,0xFF
1.835097240000000,0,0x00,0xFF
1.835103640000000,0,0x00,0xFF
1.835110040000000,0,0x00,0xFF
1.835116440000000,0,0x00,0xFF
1.835122840000000,0,0x00,0xFF
1.835129240000000,0,0xBF,0xFF
1.835135640000000,0,0x00,0xFF
1.835142040000000,0,0x00,0xFF
1.835148440000000,0,0x00,0xFF
1.835154840000000,0,0x00,0xFF
1.835161240000000,0,0x00,0xFF
1.835167640000000,0,0x00,0xFF
1.835174040000000,0,0x00,0xFF
1.835180440000000,0,0x00,0xFF
1.835186840000000,0,0x00,0xFF
1.835193240000000,0,0x00,0xFF
1.835199640000000,0,0x00,0xFF
1.835206040000000,0,0x00,0xFF
1.835212440000000,0,0x00,0xFF
1.835218840000000,0,0x00,0xFF
1.835225240000000,0,0x00,0xFF
1.835231640000000,0,0x00,0xFF
1.835238040000000,0,0x00,0xFF
1.835244440000000,0,0x00,0xFF
1.835250840000000,0,0x00,0xFF
1.835257240000000,0,0x00,0xFF
1.835263640000000,0,0x00,0xFF
1.835270040000000,0,0x00,0xFF
1.835276440000000,0,0x00,0xFF
1.835282840000000,0,0x00,0xFF
1.835289240000000,0,0x00,0xFF
1.835295640000000,0,0x00,0xFF
1.835302040000000,0,0x00,0xFF
1.835372480000000,0,0xB5,0x00
1.835413740000000,0,0x02,0x00
1.835454240000000,0,0x10,0x00
1.835507260000000,0,0x03,0xFF
1.835513660000000,0,0x03,0xFF
1.835520060000000,0,0x03,0xFF
1.835526460000000,0,0x03,0xFF
1.835532860000000,0,0x03,0xFF
1.835539260000000,0,0x03,0xFF
1.835545660000000,0,0x03,0xFF
1.835552060000000,0,0x03,0xFF
1.835558460000000,0,0x03,0xFF
1.835564860000000,0,0x03,0xFF
1.835571260000000,0,0x03,0xFF
1.835577660000000,0,0x03,0xFF
1.835584060000000,0,0x03,0xFF
1.835590460000000,0,0x03,0xFF
1.835596860000000,0,0x03,0xFF
1.835603260000000,0,0x03,0xFF
1.835609660000000,0,0x03,0xFF
1.835616060000000,0,0x03,0xFF
1.835622460000000,0,0x03,0xFF
1.835628860000000,0,0x03,0xFF
1.835635260000000,0,0x03,0xFF
1.835641660000000,0,0x03,0xFF
1.835648060000000,0,0x03,0xFF
1.835654460000000,0,0x03,0xFF
1.835660860000000,0,0x03,0xFF
1.835667260000000,0,0x03,0xFF
1.835673660000000,0,0x03,0xFF
1.835680060000000,0,0x03,0xFF
1.835686460000000,0,0x03,0xFF
1.835692860000000,0,0x03,0xFF
1.835699260000000,0,0x00,0xFF
1.835705660000000,0,0x00,0xFF
1.835712060000000,0,0x00,0xFF
1.835718460000000,0,0x00,0xFF
1.835724860000000,0,0x00,0xFF
1.835731260000000,0,0x00,0xFF
1.835737660000000,0,0x00,0xFF
1.835744060000000,0,0x00,0xFF
1.835750460000000,0,0x00,0xFF
1.835756860000000,0,0x00,0xFF
1.835763260000000,0,0x00,0xFF
1.835769660000000,0,0x00,0xFF
1.835776060000000,0,0x00,0xFF
1.835782460000000,0,0x00,0xFF
1.835788860000000,0,0x00,0xFF
1.835795260000000,0,0x00,0xFF
1.835801660000000,0,0x00,0xFF
1.835808060000000,0,0x00,0xFF
1.835814460000000,0,0x00,0xFF
1.835820860000000,0,0x00,0xFF
1.835827260000000,0,0x00,0xFF
1.835833660000000,0,0x00,0xFF
1.835840060000000,0,0x00,0xFF
1.835846460000000,0,0x00,0xFF
1.835852860000000,0,0x00,0xFF
1.835859260000000,0,0x00,0xFF
1.835865660000000,0,0x00,0xFF
1.835872060000000,0,0x00,0xFF
1.835878460000000,0,0x00,0xFF
1.835884860000000,0,0x00,0xFF
1.835891260000000,0,0x00,0xFF
1.835897660000000,0,0x00,0xFF
1.835904060000000,0,0x00,0xFF
1.835910460000000,0,0x00,0xFF
1.835916860000000,0,0x00,0xFF
1.835923260000000,0,0x00,0xFF
1.835929660000000,0,0x00,0xFF
1.835936060000000,0,0x00,0xFF
1.835942460000000,0,0x00,0xFF
1.835948860000000,0,0x00,0xFF
1.835955260000000,0,0x00,0xFF
1.835961660000000,0,0x00,0xFF
1.835968060000000,0,0x00,0xFF
1.835974460000000,0,0x00,0xFF
1.835980860000000,0,0x00,0xFF
1.835987260000000,0,0x00,0xFF
1.835993660000000,0,0x00,0xFF
1.836000060000000,0,0x00,0xFF
1.836006460000000,0,0x00,0xFF
1.836012860000000,0,0x00,0xFF
1.836019260000000,0,0x00,0xFF
1.836025660000000,0,0x00,0xFF
1.836032060000000,0,0x00,0xFF
1.836038460000000,0,0x00,0xFF
1.836044860000000,0,0x00,0xFF
1.836051260000000,0,0x00,0xFF
1.836057660000000,0,0x00,0xFF
1.836064060000000,0,0x00,0xFF
1.836070460000000,0,0x00,0xFF
1.836076860000000,0,0x00,0xFF
1.836083260000000,0,0x00,0xFF
1.836089660000000,0,0x00,0xFF
1.836096060000000,0,0x00,0xFF
1.836102460000000,0,0x00,0xFF
1.836108860000000,0,0x00,0xFF
1.836115260000000,0,0x00,0xFF
1.836121660000000,0,0x00,0xFF
1.836128060000000,0,0x00,0xFF
1.836134460000000,0,0x00,0xFF
1.836140860000000,0,0x00,0xFF
1.836147260000000,0,0x00,0xFF
1.836153660000000,0,0x00,0xFF
1.836160060000000,0,0x00,0xFF
1.836166460000000,0,0x00,0xFF
1.836172860000000,0,0x00,0xFF
1.836179260000000,0,0x00,0xFF
1.836185660000000,0,0x00,0xFF
1.836192060000000,0,0x00,0xFF
1.836198460000000,0,0x00,0xFF
1.836204860000000,0,0x00,0xFF
1.836211260000000,0,0x00,0xFF
1.836217660000000,0,0x00,0xFF
1.836224060000000,0,0x00,0xFF
1.836230460000000,0,0x00,0xFF
1.836236860000000,0,0x00,0xFF
1.836243260000000,0,0x00,0xFF
1.836249660000000,0,0x00,0xFF
1.836256060000000,0,0x00,0xFF
1.836262460000000,0,0x00,0xFF
1.836268860000000,0,0x00,0xFF
1.836275260000000,0,0x00,0xFF
1.836281660000000,0,0x00,0xFF
1.836288060000000,0,0x00,0xFF
1.836294460000000,0,0x00,0xFF
1.836300860000000,0,0x00,0xFF
1.836307260000000,0,0x00,0xFF
1.836313660000000,0,0x00,0xFF
1.836320060000000,0,0x00,0xFF
1.836391240000000,0,0xB6,0x00
1.836464320000000,0,0x02,0x00
1.836507680000000,0,0x10,0x00
1.836560960000000,0,0x00,0xFF
1.836567360000000,0,0x00,0xFF
1.836573760000000,0,0x00,0xFF
1.836580160000000,0,0x00,0xFF
1.836586560000000,0,0x00,0xFF
1.836592960000000,0,0x00,0xFF
1.836599360000000,0,0x00,0xFF
1.836605760000000,0,0x00,0xFF
1.836612160000000,0,0x00,0xFF
1.836618560000000,0,0x00,0xFF
1.836624960000000,0,0x00,0xFF
1.836631360000000,0,0x00,0xFF
1.836637760000000,0,0x00,0xFF
1.836644160000000,0,0x00,0xFF
1.836650560000000,0,0x00,0xFF
1.836656960000000,0,0x00,0xFF
1.836663360000000,0,0x00,0xFF
1.836669760000000,0,0x00,0xFF
1.836676160000000,0,0x00,0xFF
1.836682560000000,0,0x00,0xFF
1.836688960000000,0,0x00,0xFF
1.836695360000000,0,0x00,0xFF
1.836701760000000,0,0x00,0xFF
1.836708160000000,0,0x00,0xFF
1.836714560000000,0,0x00,0xFF
1.836720960000000,0,0x00,0xFF
1.836727360000000,0,0x00,0xFF
1.836733760000000,0,0x00,0xFF
1.836740160000000,0,0x00,0xFF
1.836746560000000,0,0x00,0xFF
1.836752960000000,0,0x00,0xFF
1.836759360000000,0,0x00,0xFF
1.836765760000000,0,0x00,0xFF
1.836772160000000,0,0x00,0xFF
1.836778560000000,0,0x00,0xFF
1.836784960000000,0,0x00,0xFF
1.836791360000000,0,0x00,0xFF
1.836797760000000,0,0x00,0xFF
1.836804160000000,0,0x00,0xFF
1.836810560000000,0,0x00,0xFF
1.836816960000000,0,0x00,0xFF
1.836823360000000,0,0x00,0xFF
1.836829760000000,0,0x00,0xFF
1.836836160000000,0,0x00,0xFF
1.836842560000000,0,0x00,0xFF
1.836848960000000,0,0x00,0xFF
1.836855360000000,0,0x00,0xFF
1.836861760000000,0,0x00,0xFF
1.836868160000000,0,0x00,0xFF
1.836874560000000,0,0x00,0xFF
1.836880960000000,0,0x00,0xFF
1.836887360000000,0,0x00,0xFF
1.836893760000000,0,0x00,0xFF
1.836900160000000,0,0x00,0xFF
1.836906560000000,0,0x00,0xFF
1.836912960000000,0,0x00,0xFF
1.836919360000000,0,0x00,0xFF
1.836925760000000,0,0x00,0xFF
1.836932160000000,0,0x00,0xFF
1.836938560000000,0,0x00,0xFF
1.836944960000000,0,0x00,0xFF
1.836951360000000,0,0x00,0xFF
1.836957760000000,0,0x00,0xFF
1.836964160000000,0,0x00,0xFF
1.836970560000000,0,0x00,0xFF
1.836976960000000,0,0x00,0xFF
1.836983360000000,0,0x00,0xFF
1.836989760000000,0,0x00,0xFF
1.836996160000000,0,0x00,0xFF
1.837002560000000,0,0x00,0xFF
1.837008960000000,0,0x00,0xFF
1.837015360000000,0,0x00,0xFF
1.837021760000000,0,0x00,0xFF
1.837028160000000,0,0x00,0xFF
1.837034560000000,0,0x00,0xFF
1.837040960000000,0,0x00,0xFF
1.837047360000000,0,0x00,0xFF
1.837053760000000,0,0x00,0xFF
1.837060160000000,0,0x00,0xFF
1.837066560000000,0,0x00,0xFF
1.837072960000000,0,0x00,0xFF
1.837079360000000,0,0x00,0xFF
1.837085760000000,0,0x00,0xFF
1.837092160000000,0,0x00,0xFF
1.837098560000000,0,0x00,0xFF
1.837104960000000,0,0x00,0xFF
1.837111360000000,0,0x00,0xFF
1.837117760000000,0,0x00,0xFF
1.837124160000000,0,0x00,0xFF
1.837130560000000,0,0x00,0xFF
1.837136960000000,0,0x00,0xFF
1.837143360000000,0,0x00,0xFF
1.837149760000000,0,0x00,0xFF
1.837156160000000,0,0x00,0xFF
1.837162560000000,0,0x00,0xFF
1.837168960000000,0,0x00,0xFF
1.837175360000000,0,0x00,0xFF
1.837181760000000,0,0x00,0xFF
1.837188160000000,0,0x00,0xFF
1.837194560000000,0,0x00,0xFF
1.837200960000000,0,0x00,0xFF
1.837207360000000,0,0x00,0xFF
1.837213760000000,0,0x00,0xFF
1.837220160000000,0,0x00,0xFF
1.837226560000000,0,0x00,0xFF
1.837232960000000,0,0x00,0xFF
1.837239360000000,0,0x00,0xFF
1.837245760000000,0,0x00,0xFF
1.837252160000000,0,0x00,0xFF
1.837258560000000,0,0x00,0xFF
1.837264960000000,0,0x00,0xFF
1.837271360000000,0,0x00,0xFF
1.837277760000000,0,0x00,0xFF
1.837284160000000,0,0x00,0xFF
1.837290560000000,0,0x00,0xFF
1.837296960000000,0,0x00,0xFF
1.837303360000000,0,0x00,0xFF
1.837309760000000,0,0x00,0xFF
1.837316160000000,0,0x00,0xFF
1.837322560000000,0,0x00,0xFF
1.837328960000000,0,0x00,0xFF
1.837335360000000,0,0x00,0xFF
1.837341760000000,0,0x00,0xFF
1.837348160000000,0,0x00,0xFF
1.837354560000000,0,0x00,0xFF
1.837360960000000,0,0x00,0xFF
1.837367360000000,0,0x00,0xFF
1.837373760000000,0,0x00,0xFF
1.837445320000000,0,0xB7,0x00
1.837486700000000,0,0x02,0x00
1.837527260000000,0,0x10,0x00
1.837577460000000,0,0x00,0xFF
1.837583860000000,0,0x00,0xFF
1.837590260000000,0,0x00,0xFF
1.837596660000000,0,0x00,0xFF
1.837603060000000,0,0x00,0xFF
1.837609460000000,0,0x00,0xFF
1.837615860000000,0,0x00,0xFF
1.837622260000000,0,0x00,0xFF
1.837628660000000,0,0x00,0xFF
1.837635060000000,0,0x00,0xFF
1.837641460000000,0,0x00,0xFF
1.837647860000000,0,0x00,0xFF
1.837654260000000,0,0x00,0xFF
1.837660660000000,0,0x00,0xFF
1.837667060000000,0,0x00,0xFF
1.837673460000000,0,0x00,0xFF
1.837679860000000,0,0x00,0xFF
1.837686260000000,0,0x00,0xFF
1.837692660000000,0,0x00,0xFF
1.837699060000000,0,0x00,0xFF
1.837705460000000,0,0x00,0xFF
1.837711860000000,0,0x00,0xFF
1.837718260000000,0,0x00,0xFF
1.837724640000000,0,0x00,0xFF
1.837731040000000,0,0x00,0xFF
1.837737440000000,0,0x00,0xFF
1.837743840000000,0,0x00,0xFF
1.837750240000000,0,0x00,0xFF
1.837756640000000,0,0x00,0xFF
1.837763040000000,0,0x00,0xFF
1.837769440000000,0,0x00,0xFF
1.837775840000000,0,0x00,0xFF
1.837782240000000,0,0x00,0xFF
1.837788640000000,0,0x00,0xFF
1.837795040000000,0,0x00,0xFF
1.837801440000000,0,0x00,0xFF
1.837807840000000,0,0x00,0xFF
1.837814240000000,0,0x00,0xFF
1.837820640000000,0,0x00,0xFF
1.837827040000000,0,0x00,0xFF
1.837833440000000,0,0x00,0xFF
1.837839840000000,0,0x00,0xFF
1.837846240000000,0,0x00,0xFF
1.837852640000000,0,0x00,0xFF
1.837859040000000,0,0x00,0xFF
1.837865440000000,0,0x00,0xFF
1.837871840000000,0,0x00,0xFF
1.837878240000000,0,0x00,0xFF
1.837884640000000,0,0x00,0xFF
1.837891040000000,0,0x00,0xFF
1.837897440000000,0,0x00,0xFF
1.837903840000000,0,0x00,0xFF
1.837910240000000,0,0x00,0xFF
1.837916640000000,0,0x00,0xFF
1.837923040000000,0,0x00,0xFF
1.837929440000000,0,0x00,0xFF
1.837935840000000,0,0x00,0xFF
1.837942240000000,0,0x00,0xFF
1.837948640000000,0,0x00,0xFF
1.837955040000000,0,0x00,0xFF
1.837961440000000,0,0x81,0xFF
1.837967840000000,0,0x81,0xFF
1.837974240000000,0,0xFF,0xFF
1.837980640000000,0,0x80,0xFF
1.837987040000000,0,0x80,0xFF
1.837993440000000,0,0x00,0xFF
1.837999840000000,0,0x00,0xFF
1.838006240000000,0,0x70,0xFF
1.838012640000000,0,0x88,0xFF
1.838019040000000,0,0x88,0xFF
1.838025440000000,0,0x70,0xFF
1.838031840000000,0,0x00,0xFF
1.838038240000000,0,0x00,0xFF
1.838044640000000,0,0x70,0xFF
1.838051040000000,0,0x88,0xFF
1.838057440000000,0,0x88,0xFF
1.838063840000000,0,0x98,0xFF
1.838070240000000,0,0x00,0xFF
1.838076640000000,0,0x81,0xFF
1.838083040000000,0,0xFF,0xFF
1.838089440000000,0,0xA0,0xFF
1.838095840000000,0,0x38,0xFF
1.838102240000000,0,0xC8,0xFF
1.838108640000000,0,0x88,0xFF
1.838115040000000,0,0x00,0xFF
1.838121440000000,0,0x00,0xFF
1.838127840000000,0,0x00,0xFF
1.838134240000000,0,0x00,0xFF
1.838140640000000,0,0x00,0xFF
1.838147040000000,0,0x00,0xFF
1.838153440000000,0,0x00,0xFF
1.838159840000000,0,0x88,0xFF
1.838166240000000,0,0xF9,0xFF
1.838172640000000,0,0x80,0xFF
1.838179040000000,0,0x00,0xFF
1.838185440000000,0,0x00,0xFF
1.838191840000000,0,0x88,0xFF
1.838198240000000,0,0xF8,0xFF
1.838204640000000,0,0x88,0xFF
1.838211040000000,0,0x08,0xFF
1.838217440000000,0,0xF0,0xFF
1.838223840000000,0,0x80,0xFF
1.838230240000000,0,0x00,0xFF
1.838236640000000,0,0x00,0xFF
1.838243040000000,0,0x84,0xFF
1.838249440000000,0,0x00,0xFF
1.838255840000000,0,0x00,0xFF
1.838262240000000,0,0x00,0xFF
1.838268640000000,0,0x4F,0xFF
1.838275040000000,0,0x89,0xFF
1.838281440000000,0,0x89,0xFF
1.838287840000000,0,0x89,0xFF
1.838294240000000,0,0x71,0xFF
1.838300640000000,0,0x00,0xFF
1.838307040000000,0,0x00,0xFF
1.838313440000000,0,0x98,0xFF
1.838319840000000,0,0xA8,0xFF
1.838326240000000,0,0xA8,0xFF
1.838332640000000,0,0xC8,0xFF
1.838339040000000,0,0x00,0xFF
1.838345440000000,0,0x00,0xFF
1.838351840000000,0,0x00,0xFF
1.838358240000000,0,0x00,0xFF
1.838364640000000,0,0x00,0xFF
1.838371040000000,0,0x00,0xFF
1.838377440000000,0,0x00,0xFF
1.838383840000000,0,0x00,0xFF
1.838390240000000,0,0x00,0xFF
2.839357860000000,0,0xB0,0x00
2.839415040000000,0,0x02,0x00
2.839458220000000,0,0x10,0x00
2.839520840000000,0,0xFF,0xFF
2.839527240000000,0,0xDF,0xFF
2.839533640000000,0,0xAF,0xFF
2.839540040000000,0,0x77,0xFF
2.839546440000000,0,0xFB,0xFF
2.839552840000000,0,0xFD,0xFF
2.839559240000000,0,0xFF,0xFF
2.839565640000000,0,0xFF,0xFF
2.839572040000000,0,0xFF,0xFF
2.839578440000000,0,0xFF,0xFF
2.839584840000000,0,0xFF,0xFF
2.839591240000000,0,0xFF,0xFF
2.839597640000000,0,0xE7,0xFF
2.839604040000000,0,0x7B,0xFF
2.839610440000000,0,0xBB,0xFF
2.839616840000000,0,0xDB,0xFF
2.839623240000000,0,0xE7,0xFF
2.839629640000000,0,0xFF,0xFF
2.839636040000000,0,0xFF,0xFF
2.839642440000000,0,0xFF,0xFF
2.839648840000000,0,0xFF,0xFF
2.839655240000000,0,0xFF,0xFF
2.839661640000000,0,0xFF,0xFF
2.839668040000000,0,0xFF,0xFF
2.839674440000000,0,0xFF,0xFF
2.839680840000000,0,0xFD,0xFF
2.839687240000000,0,0xFB,0xFF
2.839693640000000,0,0x77,0xFF
2.839700040000000,0,0xAF,0xFF
2.839706440000000,0,0xDF,0xFF
2.839712840000000,0,0x00,0xFF
2.839719240000000,0,0x00,0xFF
2.839725640000000,0,0x00,0xFF
2.839732040000000,0,0x00,0xFF
2.839738440000000,0,0x04,0xFF
2.839744840000000,0,0xFC,0xFF
2.839751240000000,0,0x24,0xFF
2.839757640000000,0,0x24,0xFF
2.839764040000000,0,0xD8,0xFF
2.839770440000000,0,0x00,0xFF
2.839776840000000,0,0x00,0xFF
2.839783240000000,0,0x40,0xFF
2.839789640000000,0,0xA0,0xFF
2.839796040000000,0,0xA0,0xFF
2.839802440000000,0,0xC0,0xFF
2.839808840000000,0,0x00,0xFF
2.839815240000000,0,0x00,0xFF
2.839821640000000,0,0xC0,0xFF
2.839828040000000,0,0x20,0xFF
2.839834440000000,0,0x20,0xFF
2.839840840000000,0,0x60,0xFF
2.839847240000000,0,0x00,0xFF
2.839853640000000,0,0x04,0xFF
2.839860040000000,0,0xFC,0xFF
2.839866440000000,0,0x80,0xFF
2.839872840000000,0,0xE0,0xFF
2.839879240000000,0,0x20,0xFF
2.839885640000000,0,0x20,0xFF
2.839892040000000,0,0x20,0xFF
2.839898440000000,0,0xE0,0xFF
2.839904840000000,0,0x00,0xFF
2.839911240000000,0,0x20,0xFF
2.839917640000000,0,0xE0,0xFF
2.839924040000000,0,0x00,0xFF
2.839930440000000,0,0x20,0xFF
2.839936840000000,0,0xE0,0xFF
2.839943240000000,0,0x20,0xFF
2.839949640000000,0,0x20,0xFF
2.839956040000000,0,0xC0,0xFF
2.839962440000000,0,0x00,0xFF
2.839968840000000,0,0x00,0xFF
2.839975240000000,0,0x00,0xFF
2.839981640000000,0,0x00,0xFF
2.839988040000000,0,0x00,0xFF
2.839994440000000,0,0x00,0xFF
2.840000840000000,0,0x00,0xFF
2.840007240000000,0,0x00,0xFF
2.840013640000000,0,0xE0,0xFF
2.840020040000000,0,0x9C,0xFF
2.840026440000000,0,0xF0,0xFF
2.840032840000000,0,0x80,0xFF
2.840039240000000,0,0x00,0xFF
2.840045640000000,0,0x00,0xFF
2.840052040000000,0,0xC0,0xFF
2.840058440000000,0,0x20,0xFF
2.840064840000000,0,0x24,0xFF
2.840071240000000,0,0xFC,0xFF
2.840077640000000,0,0x00,0xFF
2.840084040000000,0,0xE0,0xFF
2.840090440000000,0,0x20,0xFF
2.840096840000000,0,0xE0,0xFF
2.840103240000000,0,0x20,0xFF
2.840109640000000,0,0xC0,0xFF
2.840116040000000,0,0x00,0xFF
2.840122440000000,0,0x00,0xFF
2.840128840000000,0,0x20,0xFF
2.840135240000000,0,0xE4,0xFF
2.840141640000000,0,0x00,0xFF
2.840148040000000,0,0x00,0xFF
2.840154440000000,0,0x00,0xFF
2.840160840000000,0,0x20,0xFF
2.840167240000000,0,0xE0,0xFF
2.840173640000000,0,0x20,0xFF
2.840180040000000,0,0x20,0xFF
2.840186440000000,0,0xC0,0xFF
2.840192840000000,0,0x00,0xFF
2.840199240000000,0,0x00,0xFF
2.840205640000000,0,0x00,0xFF
2.840212040000000,0,0x00,0xFF
2.840218440000000,0,0x00,0xFF
2.840224840000000,0,0x00,0xFF
2.840231240000000,0,0x00,0xFF
2.840237640000000,0,0x00,0xFF
2.840244040000000,0,0x00,0xFF
2.840250440000000,0,0xF8,0xFF
2.840256840000000,0,0x08,0xFF
2.840263240000000,0,0x04,0xFF
2.840269640000000,0,0xF4,0xFF
2.840276040000000,0,0xF4,0xFF
2.840282440000000,0,0x04,0xFF
2.840288840000000,0,0xF4,0xFF
2.840295240000000,0,0xF4,0xFF
2.840301640000000,0,0x04,0xFF
2.840308040000000,0,0xF4,0xFF
2.840314440000000,0,0xF4,0xFF
2.840320820000000,0,0x04,0xFF
2.840327220000000,0,0xFC,0xFF
2.840333620000000,0,0x00,0xFF
2.840420380000000,0,0xB1,0x00
2.840462240000000,0,0x02,0x00
2.840503120000000,0,0x10,0x00
2.840553860000000,0,0x0F,0xFF
2.840560260000000,0,0x0F,0xFF
2.840566660000000,0,0x0F,0xFF
2.840573060000000,0,0x0F,0xFF
2.840579460000000,0,0x0E,0xFF
2.840585860000000,0,0x0D,0xFF
2.840592260000000,0,0x0F,0xFF
2.840598660000000,0,0x0F,0xFF
2.840605060000000,0,0x0F,0xFF
2.840611460000000,0,0x0F,0xFF
2.840617860000000,0,0x0F,0xFF
2.840624260000000,0,0x0F,0xFF
2.840630660000000,0,0x0C,0xFF
2.840637060000000,0,0x0D,0xFF
2.840643460000000,0,0x0D,0xFF
2.840649860000000,0,0x0D,0xFF
2.840656260000000,0,0x0D,0xFF
2.840662660000000,0,0x0F,0xFF
2.840669060000000,0,0x0F,0xFF
2.840675460000000,0,0x0F,0xFF
2.840681860000000,0,0x0F,0xFF
2.840688260000000,0,0x0F,0xFF
2.840694660000000,0,0x0F,0xFF
2.840701060000000,0,0x0F,0xFF
2.840707460000000,0,0x0F,0xFF
2.840713860000000,0,0x0D,0xFF
2.840720260000000,0,0x0E,0xFF
2.840726660000000,0,0x0F,0xFF
2.840733060000000,0,0x0F,0xFF
2.840739460000000,0,0x0F,0xFF
2.840745860000000,0,0x00,0xFF
2.840752260000000,0,0x00,0xFF
2.840758660000000,0,0x00,0xFF
2.840765060000000,0,0x00,0xFF
2.840771460000000,0,0x02,0xFF
2.840777860000000,0,0x03,0xFF
2.840784260000000,0,0x02,0xFF
2.840790660000000,0,0x02,0xFF
2.840797060000000,0,0x01,0xFF
2.840803460000000,0,0x00,0xFF
2.840809860000000,0,0x00,0xFF
2.840816260000000,0,0x01,0xFF
2.840822660000000,0,0x02,0xFF
2.840829060000000,0,0x02,0xFF
2.840835460000000,0,0x03,0xFF
2.840841860000000,0,0x02,0xFF
2.840848260000000,0,0x00,0xFF
2.840854660000000,0,0x01,0xFF
2.840861060000000,0,0x02,0xFF
2.840867460000000,0,0x02,0xFF
2.840873860000000,0,0x02,0xFF
2.840880260000000,0,0x00,0xFF
2.840886660000000,0,0x02,0xFF
2.840893060000000,0,0x03,0xFF
2.840899460000000,0,0x02,0xFF
2.840905860000000,0,0x00,0xFF
2.840912260000000,0,0x03,0xFF
2.840918660000000,0,0x02,0xFF
2.840925060000000,0,0x00,0xFF
2.840931460000000,0,0x01,0xFF
2.840937860000000,0,0x02,0xFF
2.840944260000000,0,0x02,0xFF
2.840950660000000,0,0x03,0xFF
2.840957060000000,0,0x02,0xFF
2.840963460000000,0,0x08,0xFF
2.840969860000000,0,0x0F,0xFF
2.840976260000000,0,0x0A,0xFF
2.840982660000000,0,0x02,0xFF
2.840989060000000,0,0x01,0xFF
2.840995460000000,0,0x00,0xFF
2.841001860000000,0,0x00,0xFF
2.841008260000000,0,0x00,0xFF
2.841014660000000,0,0x00,0xFF
2.841021060000000,0,0x00,0xFF
2.841027460000000,0,0x00,0xFF
2.841033860000000,0,0x00,0xFF
2.841040260000000,0,0x02,0xFF
2.841046660000000,0,0x03,0xFF
2.841053060000000,0,0x00,0xFF
2.841059460000000,0,0x00,0xFF
2.841065860000000,0,0x03,0xFF
2.841072260000000,0,0x02,0xFF
2.841078660000000,0,0x00,0xFF
2.841085060000000,0,0x01,0xFF
2.841091460000000,0,0x02,0xFF
2.841097860000000,0,0x02,0xFF
2.841104260000000,0,0x03,0xFF
2.841110660000000,0,0x02,0xFF
2.841117060000000,0,0x03,0xFF
2.841123460000000,0,0x00,0xFF
2.841129860000000,0,0x03,0xFF
2.841136260000000,0,0x00,0xFF
2.841142660000000,0,0x03,0xFF
2.841149060000000,0,0x00,0xFF
2.841155460000000,0,0x00,0xFF
2.841161860000000,0,0x02,0xFF
2.841168260000000,0,0x03,0xFF
2.841174660000000,0,0x02,0xFF
2.841181060000000,0,0x00,0xFF
2.841187460000000,0,0x00,0xFF
2.841193860000000,0,0x02,0xFF
2.841200260000000,0,0x03,0xFF
2.841206660000000,0,0x02,0xFF
2.841213060000000,0,0x00,0xFF
2.841219460000000,0,0x03,0xFF
2.841225860000000,0,0x02,0xFF
2.841232260000000,0,0x00,0xFF
2.841238660000000,0,0x00,0xFF
2.841245060000000,0,0x00,0xFF
2.841251460000000,0,0x00,0xFF
2.841257860000000,0,0x00,0xFF
2.841264260000000,0,0x00,0xFF
2.841270660000000,0,0x00,0xFF
2.841277060000000,0,0x00,0xFF
2.841283460000000,0,0x01,0xFF
2.841289860000000,0,0x01,0xFF
2.841296260000000,0,0x02,0xFF
2.841302660000000,0,0x02,0xFF
2.841309060000000,0,0x02,0xFF
2.841315460000000,0,0x02,0xFF
2.841321860000000,0,0x02,0xFF
2.841328260000000,0,0x02,0xFF
2.841334660000000,0,0x02,0xFF
2.841341060000000,0,0x02,0xFF
2.841347460000000,0,0x02,0xFF
2.841353860000000,0,0x02,0xFF
2.841360260000000,0,0x03,0xFF
2.841366660000000,0,0x00,0xFF
2.841445560000000,0,0xB2,0x00
2.841487260000000,0,0x02,0x00
2.841528340000000,0,0x10,0x00
2.841578640000000,0,0xFB,0xFF
2.841585040000000,0,0x03,0xFF
2.841591440000000,0,0xFF,0xFF
2.841597840000000,0,0xFF,0xFF
2.841604240000000,0,0x03,0xFF
2.841610640000000,0,0xFB,0xFF
2.841617040000000,0,0xFF,0xFF
2.841623440000000,0,0x9F,0xFF
2.841629840000000,0,0x5F,0xFF
2.841636240000000,0,0x5F,0xFF
2.841642640000000,0,0xDF,0xFF
2.841649040000000,0,0xFF,0xFF
2.841655440000000,0,0xFF,0xFF
2.841661840000000,0,0x3F,0xFF
2.841668240000000,0,0x5F,0xFF
2.841674640000000,0,0x5F,0xFF
2.841681040000000,0,0x3F,0xFF
2.841687440000000,0,0xFF,0xFF
2.841693840000000,0,0xDF,0xFF
2.841700240000000,0,0x1F,0xFF
2.841706640000000,0,0xBF,0xFF
2.841713040000000,0,0xDF,0xFF
2.841719440000000,0,0xDF,0xFF
2.841725840000000,0,0xFF,0xFF
2.841732240000000,0,0xFF,0xFF
2.841738640000000,0,0xFF,0xFF
2.841745040000000,0,0xEF,0xFF
2.841751440000000,0,0xFF,0xFF
2.841757840000000,0,0xFF,0xFF
2.841764240000000,0,0xFF,0xFF
2.841770640000000,0,0x00,0xFF
2.841777040000000,0,0x00,0xFF
2.841783440000000,0,0x00,0xFF
2.841789840000000,0,0xE0,0xFF
2.841796240000000,0,0x9C,0xFF
2.841802640000000,0,0xF0,0xFF
2.841809040000000,0,0x80,0xFF
2.841815440000000,0,0x00,0xFF
2.841821840000000,0,0x00,0xFF
2.841828240000000,0,0xC0,0xFF
2.841834640000000,0,0x20,0xFF
2.841841040000000,0,0x24,0xFF
2.841847440000000,0,0xFC,0xFF
2.841853840000000,0,0x00,0xFF
2.841860240000000,0,0xE0,0xFF
2.841866640000000,0,0x20,0xFF
2.841873040000000,0,0xE0,0xFF
2.841879440000000,0,0x20,0xFF
2.841885840000000,0,0xC0,0xFF
2.841892240000000,0,0x00,0xFF
2.841898640000000,0,0x00,0xFF
2.841905040000000,0,0x20,0xFF
2.841911440000000,0,0xE4,0xFF
2.841917840000000,0,0x00,0xFF
2.841924240000000,0,0x00,0xFF
2.841930640000000,0,0x00,0xFF
2.841937040000000,0,0x20,0xFF
2.841943440000000,0,0xE0,0xFF
2.841949840000000,0,0x20,0xFF
2.841956240000000,0,0x20,0xFF
2.841962640000000,0,0xC0,0xFF
2.841969040000000,0,0x00,0xFF
2.841975440000000,0,0x00,0xFF
2.841981840000000,0,0x20,0xFF
2.841988240000000,0,0xE4,0xFF
2.841994640000000,0,0x00,0xFF
2.842001040000000,0,0x00,0xFF
2.842007440000000,0,0x00,0xFF
2.842013840000000,0,0x00,0xFF
2.842020240000000,0,0x60,0xFF
2.842026640000000,0,0xA0,0xFF
2.842033040000000,0,0xA0,0xFF
2.842039440000000,0,0x20,0xFF
2.842045840000000,0,0x00,0xFF
2.842052240000000,0,0x00,0xFF
2.842058640000000,0,0x20,0xFF
2.842065040000000,0,0xF8,0xFF
2.842071440000000,0,0x20,0xFF
2.842077840000000,0,0x00,0xFF
2.842084240000000,0,0x00,0xFF
2.842090640000000,0,0x20,0xFF
2.842097040000000,0,0xE0,0xFF
2.842103440000000,0,0x40,0xFF
2.842109840000000,0,0x20,0xFF
2.842116240000000,0,0x20,0xFF
2.842122640000000,0,0x00,0xFF
2.842129040000000,0,0x00,0xFF
2.842135440000000,0,0x40,0xFF
2.842141840000000,0,0xA0,0xFF
2.842148240000000,0,0xA0,0xFF
2.842154640000000,0,0xC0,0xFF
2.842161040000000,0,0x00,0xFF
2.842167440000000,0,0x00,0xFF
2.842173840000000,0,0x20,0xFF
2.842180240000000,0,0xF8,0xFF
2.842186640000000,0,0x20,0xFF
2.842193040000000,0,0x00,0xFF
2.842199440000000,0,0x00,0xFF
2.842205840000000,0,0x00,0xFF
2.842212240000000,0,0xC0,0xFF
2.842218640000000,0,0x20,0xFF
2.842225040000000,0,0x20,0xFF
2.842231440000000,0,0xC0,0xFF
2.842237840000000,0,0x00,0xFF
2.842244240000000,0,0x20,0xFF
2.842250640000000,0,0xE0,0xFF
2.842257040000000,0,0x40,0xFF
2.842263440000000,0,0x20,0xFF
2.842269840000000,0,0x20,0xFF
2.842276240000000,0,0x00,0xFF
2.842282640000000,0,0x00,0xFF
2.842289040000000,0,0x00,0xFF
2.842295440000000,0,0x00,0xFF
2.842301840000000,0,0x00,0xFF
2.842308240000000,0,0x00,0xFF
2.842314640000000,0,0x00,0xFF
2.842321040000000,0,0x00,0xFF
2.842327440000000,0,0x00,0xFF
2.842333840000000,0,0x00,0xFF
2.842340240000000,0,0x00,0xFF
2.842346640000000,0,0x00,0xFF
2.842353040000000,0,0x00,0xFF
2.842359440000000,0,0x00,0xFF
2.842365840000000,0,0x00,0xFF
2.842372240000000,0,0x00,0xFF
2.842378640000000,0,0x00,0xFF
2.842385040000000,0,0x00,0xFF
2.842391440000000,0,0x00,0xFF
2.842468980000000,0,0xB3,0x00
2.842510320000000,0,0x02,0x00
2.842550900000000,0,0x10,0x00
2.842601020000000,0,0xCF,0xFF
2.842607420000000,0,0xCE,0xFF
2.842613820000000,0,0xCD,0xFF
2.842620220000000,0,0xCD,0xFF
2.842626620000000,0,0xCE,0xFF
2.842633020000000,0,0xCF,0xFF
2.842639420000000,0,0xCF,0xFF
2.842645820000000,0,0xCD,0xFF
2.842652220000000,0,0xCD,0xFF
2.842658620000000,0,0xCD,0xFF
2.842665020000000,0,0xCC,0xFF
2.842671420000000,0,0xCF,0xFF
2.842677820000000,0,0xCF,0xFF
2.842684220000000,0,0xCE,0xFF
2.842690620000000,0,0xCD,0xFF
2.842697020000000,0,0xCD,0xFF
2.842703420000000,0,0xCD,0xFF
2.842709820000000,0,0xCF,0xFF
2.842716220000000,0,0xCD,0xFF
2.842722620000000,0,0xCC,0xFF
2.842729020000000,0,0xCD,0xFF
2.842735420000000,0,0xCF,0xFF
2.842741820000000,0,0xCF,0xFF
2.842748220000000,0,0xCF,0xFF
2.842754620000000,0,0xCF,0xFF
2.842761020000000,0,0xCF,0xFF
2.842767420000000,0,0xCD,0xFF
2.842773820000000,0,0xCF,0xFF
2.842780220000000,0,0xCF,0xFF
2.842786620000000,0,0xCF,0xFF
2.842793020000000,0,0x00,0xFF
2.842799420000000,0,0x00,0xFF
2.842805820000000,0,0x02,0xFF
2.842812220000000,0,0x03,0xFF
2.842818620000000,0,0x00,0xFF
2.842825020000000,0,0x00,0xFF
2.842831420000000,0,0x03,0xFF
2.842837820000000,0,0x02,0xFF
2.842844220000000,0,0x00,0xFF
2.842850620000000,0,0x01,0xFF
2.842857020000000,0,0x02,0xFF
2.842863420000000,0,0x02,0xFF
2.842869820000000,0,0x03,0xFF
2.842876220000000,0,0x02,0xFF
2.842882620000000,0,0x03,0xFF
2.842889020000000,0,0x00,0xFF
2.842895420000000,0,0x03,0xFF
2.842901820000000,0,0x00,0xFF
2.842908220000000,0,0x03,0xFF
2.842914620000000,0,0x00,0xFF
2.842921020000000,0,0x00,0xFF
2.842927420000000,0,0x02,0xFF
2.842933820000000,0,0x03,0xFF
2.842940220000000,0,0x02,0xFF
2.842946620000000,0,0x00,0xFF
2.842953020000000,0,0x00,0xFF
2.842959420000000,0,0x02,0xFF
2.842965820000000,0,0x03,0xFF
2.842972220000000,0,0x02,0xFF
2.842978600000000,0,0x00,0xFF
2.842985000000000,0,0x03,0xFF
2.842991400000000,0,0x02,0xFF
2.842997800000000,0,0x00,0xFF
2.843004200000000,0,0x02,0xFF
2.843010600000000,0,0x03,0xFF
2.843017000000000,0,0x02,0xFF
2.843023400000000,0,0x00,0xFF
2.843029800000000,0,0x00,0xFF
2.843036200000000,0,0x00,0xFF
2.843042600000000,0,0x02,0xFF
2.843049000000000,0,0x02,0xFF
2.843055400000000,0,0x02,0xFF
2.843061800000000,0,0x03,0xFF
2.843068200000000,0,0x00,0xFF
2.843074600000000,0,0x00,0xFF
2.843081000000000,0,0x00,0xFF
2.843087400000000,0,0x01,0xFF
2.843093800000000,0,0x02,0xFF
2.843100200000000,0,0x02,0xFF
2.843106600000000,0,0x00,0xFF
2.843113000000000,0,0x02,0xFF
2.843119400000000,0,0x03,0xFF
2.843125800000000,0,0x02,0xFF
2.843132200000000,0,0x00,0xFF
2.843138600000000,0,0x00,0xFF
2.843145000000000,0,0x00,0xFF
2.843151400000000,0,0x00,0xFF
2.843157800000000,0,0x01,0xFF
2.843164200000000,0,0x02,0xFF
2.843170600000000,0,0x02,0xFF
2.843177000000000,0,0x03,0xFF
2.843183400000000,0,0x02,0xFF
2.843189800000000,0,0x00,0xFF
2.843196200000000,0,0x00,0xFF
2.843202600000000,0,0x01,0xFF
2.843209000000000,0,0x02,0xFF
2.843215400000000,0,0x02,0xFF
2.843221800000000,0,0x00,0xFF
2.843228200000000,0,0x00,0xFF
2.843234600000000,0,0x01,0xFF
2.843241000000000,0,0x02,0xFF
2.843247400000000,0,0x02,0xFF
2.843253800000000,0,0x01,0xFF
2.843260200000000,0,0x00,0xFF
2.843266600000000,0,0x02,0xFF
2.843273000000000,0,0x03,0xFF
2.843279400000000,0,0x02,0xFF
2.843285800000000,0,0x00,0xFF
2.843292200000000,0,0x00,0xFF
2.843298600000000,0,0x00,0xFF
2.843305000000000,0,0x00,0xFF
2.843311400000000,0,0x00,0xFF
2.843317800000000,0,0x00,0xFF
2.843324200000000,0,0x00,0xFF
2.843330600000000,0,0x00,0xFF
2.843337000000000,0,0x00,0xFF
2.843343400000000,0,0x00,0xFF
2.843349800000000,0,0x00,0xFF
2.843356200000000,0,0x00,0xFF
2.843362600000000,0,0x00,0xFF
2.843369000000000,0,0x00,0xFF
2.843375400000000,0,0x00,0xFF
2.843381800000000,0,0x00,0xFF
2.843388200000000,0,0x00,0xFF
2.843394600000000,0,0x00,0xFF
2.843401000000000,0,0x00,0xFF
2.843407400000000,0,0x00,0xFF
2.843413800000000,0,0x00,0xFF
2.843491800000000,0,0xB4,0x00
2.843533420000000,0,0x02,0x00
2.843574080000000,0,0x10,0x00
2.843623880000000,0,0x7E,0xFF
2.843630280000000,0,0x00,0xFF
2.843636680000000,0,0x76,0xFF
2.843643080000000,0,0xF6,0xFF
2.843649480000000,0,0xF9,0xFF
2.843655880000000,0,0xFF,0xFF
2.843662280000000,0,0xFF,0xFF
2.843668680000000,0,0xAF,0xFF
2.843675080000000,0,0x57,0xFF
2.843681480000000,0,0x57,0xFF
2.843687880000000,0,0x0F,0xFF
2.843694280000000,0,0x7F,0xFF
2.843700680000000,0,0xFF,0xFF
2.843707080000000,0,0x67,0xFF
2.843713480000000,0,0x57,0xFF
2.843719880000000,0,0x57,0xFF
2.843726280000000,0,0x37,0xFF
2.843732680000000,0,0xFF,0xFF
2.843739080000000,0,0xFF,0xFF
2.843745480000000,0,0x67,0xFF
2.843751880000000,0,0x57,0xFF
2.843758280000000,0,0x57,0xFF
2.843764680000000,0,0x37,0xFF
2.843771080000000,0,0xFF,0xFF
2.843777480000000,0,0xFF,0xFF
2.843783880000000,0,0xFF,0xFF
2.843790280000000,0,0x7B,0xFF
2.843796680000000,0,0xFF,0xFF
2.843803080000000,0,0xFF,0xFF
2.843809480000000,0,0xFF,0xFF
2.843815880000000,0,0x00,0xFF
2.843822280000000,0,0x00,0xFF
2.843828680000000,0,0x08,0xFF
2.843835080000000,0,0x78,0xFF
2.843841480000000,0,0x80,0xFF
2.843847880000000,0,0x88,0xFF
2.843854280000000,0,0xF8,0xFF
2.843860680000000,0,0x80,0xFF
2.843867080000000,0,0x08,0xFF
2.843873480000000,0,0x78,0xFF
2.843879880000000,0,0x80,0xFF
2.843886280000000,0,0x88,0xFF
2.843892680000000,0,0xF8,0xFF
2.843899080000000,0,0x80,0xFF
2.843905480000000,0,0x76,0xFF
2.843911880000000,0,0x89,0xFF
2.843918280000000,0,0x89,0xFF
2.843924680000000,0,0x89,0xFF
2.843931080000000,0,0x76,0xFF
2.843937480000000,0,0x00,0xFF
2.843943880000000,0,0x00,0xFF
2.843950280000000,0,0x70,0xFF
2.843956680000000,0,0x88,0xFF
2.843963080000000,0,0x89,0xFF
2.843969460000000,0,0xFF,0xFF
2.843975880000000,0,0x80,0xFF
2.843982260000000,0,0x00,0xFF
2.843988660000000,0,0x70,0xFF
2.843995060000000,0,0x88,0xFF
2.844001460000000,0,0x89,0xFF
2.844007860000000,0,0xFF,0xFF
2.844014260000000,0,0x80,0xFF
2.844020660000000,0,0x76,0xFF
2.844027060000000,0,0x89,0xFF
2.844033460000000,0,0x89,0xFF
